Sample in Buffer,Sample in Window,TRIGGER,mealy_fsm/current_state[4:0],crypt_noncein[127:0],crypt_key[127:0],U_reg_aes/reg_crypt_tagout[127:0],tag2[63:0],crypt_start,extra_padding_ff,ready_tag,u_ascon_top/last_cycle,u_ascon_top/sel_padding,u_ascon_top/sel_xor_signal
Radix - UNSIGNED,UNSIGNED,UNSIGNED,HEX,HEX,HEX,HEX,HEX,HEX,HEX,HEX,HEX,HEX,HEX
0,0,0,"IDLE",0f0e0d0c0b0a09080706050403020100,000102030405060708090a0b0c0d0e0f,db46a245f6edc24619fa40aa26eb8afb,7b8959675be5b01e,0,0,0,0,0,0
1,1,0,"IDLE",0f0e0d0c0b0a09080706050403020100,000102030405060708090a0b0c0d0e0f,db46a245f6edc24619fa40aa26eb8afb,7b8959675be5b01e,0,0,0,0,0,0
2,2,0,"IDLE",0f0e0d0c0b0a09080706050403020100,000102030405060708090a0b0c0d0e0f,db46a245f6edc24619fa40aa26eb8afb,7b8959675be5b01e,0,0,0,0,0,0
3,3,0,"IDLE",0f0e0d0c0b0a09080706050403020100,000102030405060708090a0b0c0d0e0f,db46a245f6edc24619fa40aa26eb8afb,7b8959675be5b01e,0,0,0,0,0,0
4,4,0,"IDLE",0f0e0d0c0b0a09080706050403020100,000102030405060708090a0b0c0d0e0f,db46a245f6edc24619fa40aa26eb8afb,7b8959675be5b01e,0,0,0,0,0,0
5,5,0,"IDLE",0f0e0d0c0b0a09080706050403020100,000102030405060708090a0b0c0d0e0f,db46a245f6edc24619fa40aa26eb8afb,7b8959675be5b01e,0,0,0,0,0,0
6,6,0,"IDLE",0f0e0d0c0b0a09080706050403020100,000102030405060708090a0b0c0d0e0f,db46a245f6edc24619fa40aa26eb8afb,7b8959675be5b01e,0,0,0,0,0,0
7,7,0,"IDLE",0f0e0d0c0b0a09080706050403020100,000102030405060708090a0b0c0d0e0f,db46a245f6edc24619fa40aa26eb8afb,7b8959675be5b01e,0,0,0,0,0,0
8,8,0,"IDLE",0f0e0d0c0b0a09080706050403020100,000102030405060708090a0b0c0d0e0f,db46a245f6edc24619fa40aa26eb8afb,7b8959675be5b01e,0,0,0,0,0,0
9,9,0,"IDLE",0f0e0d0c0b0a09080706050403020100,000102030405060708090a0b0c0d0e0f,db46a245f6edc24619fa40aa26eb8afb,7b8959675be5b01e,0,0,0,0,0,0
10,10,0,"IDLE",0f0e0d0c0b0a09080706050403020100,000102030405060708090a0b0c0d0e0f,db46a245f6edc24619fa40aa26eb8afb,7b8959675be5b01e,0,0,0,0,0,0
11,11,0,"IDLE",0f0e0d0c0b0a09080706050403020100,000102030405060708090a0b0c0d0e0f,db46a245f6edc24619fa40aa26eb8afb,7b8959675be5b01e,0,0,0,0,0,0
12,12,0,"IDLE",0f0e0d0c0b0a09080706050403020100,000102030405060708090a0b0c0d0e0f,db46a245f6edc24619fa40aa26eb8afb,7b8959675be5b01e,0,0,0,0,0,0
13,13,0,"IDLE",0f0e0d0c0b0a09080706050403020100,000102030405060708090a0b0c0d0e0f,db46a245f6edc24619fa40aa26eb8afb,7b8959675be5b01e,0,0,0,0,0,0
14,14,0,"IDLE",0f0e0d0c0b0a09080706050403020100,000102030405060708090a0b0c0d0e0f,db46a245f6edc24619fa40aa26eb8afb,7b8959675be5b01e,0,0,0,0,0,0
15,15,0,"IDLE",0f0e0d0c0b0a09080706050403020100,000102030405060708090a0b0c0d0e0f,db46a245f6edc24619fa40aa26eb8afb,7b8959675be5b01e,0,0,0,0,0,0
16,16,0,"IDLE",0f0e0d0c0b0a09080706050403020100,000102030405060708090a0b0c0d0e0f,db46a245f6edc24619fa40aa26eb8afb,7b8959675be5b01e,0,0,0,0,0,0
17,17,0,"IDLE",0f0e0d0c0b0a09080706050403020100,000102030405060708090a0b0c0d0e0f,db46a245f6edc24619fa40aa26eb8afb,7b8959675be5b01e,0,0,0,0,0,0
18,18,0,"IDLE",0f0e0d0c0b0a09080706050403020100,000102030405060708090a0b0c0d0e0f,db46a245f6edc24619fa40aa26eb8afb,7b8959675be5b01e,0,0,0,0,0,0
19,19,0,"IDLE",0f0e0d0c0b0a09080706050403020100,000102030405060708090a0b0c0d0e0f,db46a245f6edc24619fa40aa26eb8afb,7b8959675be5b01e,0,0,0,0,0,0
20,20,0,"IDLE",0f0e0d0c0b0a09080706050403020100,000102030405060708090a0b0c0d0e0f,db46a245f6edc24619fa40aa26eb8afb,7b8959675be5b01e,0,0,0,0,0,0
21,21,0,"IDLE",0f0e0d0c0b0a09080706050403020100,000102030405060708090a0b0c0d0e0f,db46a245f6edc24619fa40aa26eb8afb,7b8959675be5b01e,0,0,0,0,0,0
22,22,0,"IDLE",0f0e0d0c0b0a09080706050403020100,000102030405060708090a0b0c0d0e0f,db46a245f6edc24619fa40aa26eb8afb,7b8959675be5b01e,0,0,0,0,0,0
23,23,0,"IDLE",0f0e0d0c0b0a09080706050403020100,000102030405060708090a0b0c0d0e0f,db46a245f6edc24619fa40aa26eb8afb,7b8959675be5b01e,0,0,0,0,0,0
24,24,0,"IDLE",0f0e0d0c0b0a09080706050403020100,000102030405060708090a0b0c0d0e0f,db46a245f6edc24619fa40aa26eb8afb,7b8959675be5b01e,0,0,0,0,0,0
25,25,0,"IDLE",0f0e0d0c0b0a09080706050403020100,000102030405060708090a0b0c0d0e0f,db46a245f6edc24619fa40aa26eb8afb,7b8959675be5b01e,0,0,0,0,0,0
26,26,0,"IDLE",0f0e0d0c0b0a09080706050403020100,000102030405060708090a0b0c0d0e0f,db46a245f6edc24619fa40aa26eb8afb,7b8959675be5b01e,0,0,0,0,0,0
27,27,0,"IDLE",0f0e0d0c0b0a09080706050403020100,000102030405060708090a0b0c0d0e0f,db46a245f6edc24619fa40aa26eb8afb,7b8959675be5b01e,0,0,0,0,0,0
28,28,0,"IDLE",0f0e0d0c0b0a09080706050403020100,000102030405060708090a0b0c0d0e0f,db46a245f6edc24619fa40aa26eb8afb,7b8959675be5b01e,0,0,0,0,0,0
29,29,0,"IDLE",0f0e0d0c0b0a09080706050403020100,000102030405060708090a0b0c0d0e0f,db46a245f6edc24619fa40aa26eb8afb,7b8959675be5b01e,0,0,0,0,0,0
30,30,0,"IDLE",0f0e0d0c0b0a09080706050403020100,000102030405060708090a0b0c0d0e0f,db46a245f6edc24619fa40aa26eb8afb,7b8959675be5b01e,0,0,0,0,0,0
31,31,0,"IDLE",0f0e0d0c0b0a09080706050403020100,000102030405060708090a0b0c0d0e0f,db46a245f6edc24619fa40aa26eb8afb,7b8959675be5b01e,0,0,0,0,0,0
32,32,1,"IDLE",0f0e0d0c0b0a09080706050403020100,000102030405060708090a0b0c0d0e0f,db46a245f6edc24619fa40aa26eb8afb,7b8959675be5b01e,1,0,0,0,0,0
33,33,0,"INIT_LOAD",0f0e0d0c0b0a09080706050403020100,000102030405060708090a0b0c0d0e0f,db46a245f6edc24619fa40aa26eb8afb,7b8959675be5b01e,0,0,0,0,0,0
34,34,0,"INIT_ROUND_SHIFT",0f0e0d0c0b0a09080706050403020100,000102030405060708090a0b0c0d0e0f,db46a245f6edc24619fa40aa26eb8afb,99149611931e9c1b,0,0,0,0,0,0
35,35,0,"INIT_ROUND_SHIFT",0f0e0d0c0b0a09080706050403020100,000102030405060708090a0b0c0d0e0f,db46a245f6edc24619fa40aa26eb8afb,afdd54534e37686f,0,0,0,0,0,0
36,36,0,"INIT_ROUND_SHIFT",0f0e0d0c0b0a09080706050403020100,000102030405060708090a0b0c0d0e0f,db46a245f6edc24619fa40aa26eb8afb,ce66735a451bcfbe,0,0,0,0,0,0
37,37,0,"INIT_ROUND_SHIFT",0f0e0d0c0b0a09080706050403020100,000102030405060708090a0b0c0d0e0f,db46a245f6edc24619fa40aa26eb8afb,5e489fc6615d7d21,0,0,0,0,0,0
38,38,0,"INIT_ROUND_SHIFT",0f0e0d0c0b0a09080706050403020100,000102030405060708090a0b0c0d0e0f,db46a245f6edc24619fa40aa26eb8afb,70a8247411e467eb,0,0,0,0,0,0
39,39,0,"INIT_ROUND_SHIFT",0f0e0d0c0b0a09080706050403020100,000102030405060708090a0b0c0d0e0f,db46a245f6edc24619fa40aa26eb8afb,dd1ba69ad8648380,0,0,0,0,0,0
40,40,0,"INIT_ROUND_SHIFT",0f0e0d0c0b0a09080706050403020100,000102030405060708090a0b0c0d0e0f,db46a245f6edc24619fa40aa26eb8afb,def5689163148011,0,0,0,0,0,0
41,41,0,"INIT_ROUND_SHIFT",0f0e0d0c0b0a09080706050403020100,000102030405060708090a0b0c0d0e0f,db46a245f6edc24619fa40aa26eb8afb,2b9ad3a94da1401f,0,0,0,0,0,0
42,42,0,"INIT_ROUND_SHIFT",0f0e0d0c0b0a09080706050403020100,000102030405060708090a0b0c0d0e0f,db46a245f6edc24619fa40aa26eb8afb,ddd76d45ad7d971f,0,0,0,0,0,0
43,43,0,"INIT_ROUND_SHIFT",0f0e0d0c0b0a09080706050403020100,000102030405060708090a0b0c0d0e0f,db46a245f6edc24619fa40aa26eb8afb,da065bbe1efce443,0,0,0,0,0,0
44,44,0,"INIT_ROUND_SHIFT",0f0e0d0c0b0a09080706050403020100,000102030405060708090a0b0c0d0e0f,db46a245f6edc24619fa40aa26eb8afb,ea991f65f012e18e,0,0,0,0,0,0
45,45,0,"INIT_ROUND_SHIFT",0f0e0d0c0b0a09080706050403020100,000102030405060708090a0b0c0d0e0f,db46a245f6edc24619fa40aa26eb8afb,c26362769fa75999,0,0,0,0,0,0
46,46,0,"INIT_ROUND_SHIFT_LAST",0f0e0d0c0b0a09080706050403020100,000102030405060708090a0b0c0d0e0f,db46a245f6edc24619fa40aa26eb8afb,07f08b82d2558f79,0,0,0,1,0,0
47,47,0,"INIT_ROUND_DIFFUSE",0f0e0d0c0b0a09080706050403020100,000102030405060708090a0b0c0d0e0f,db46a245f6edc24619fa40aa26eb8afb,119e1a9b19180e90,0,0,0,0,0,0
48,48,0,"INIT_ROUND_SHIFT",0f0e0d0c0b0a09080706050403020100,000102030405060708090a0b0c0d0e0f,db46a245f6edc24619fa40aa26eb8afb,73b3aa2e62aafb0d,0,0,0,0,0,0
49,49,0,"INIT_ROUND_SHIFT",0f0e0d0c0b0a09080706050403020100,000102030405060708090a0b0c0d0e0f,db46a245f6edc24619fa40aa26eb8afb,019fc8a3b18bb9f3,0,0,0,0,0,0
50,50,0,"INIT_ROUND_SHIFT",0f0e0d0c0b0a09080706050403020100,000102030405060708090a0b0c0d0e0f,db46a245f6edc24619fa40aa26eb8afb,bcdf792986e53cf8,0,0,0,0,0,0
51,51,0,"INIT_ROUND_SHIFT",0f0e0d0c0b0a09080706050403020100,000102030405060708090a0b0c0d0e0f,db46a245f6edc24619fa40aa26eb8afb,27427befae6286ec,0,0,0,0,0,0
52,52,0,"INIT_ROUND_SHIFT",0f0e0d0c0b0a09080706050403020100,000102030405060708090a0b0c0d0e0f,db46a245f6edc24619fa40aa26eb8afb,21840fe4b6ea9804,0,0,0,0,0,0
53,53,0,"INIT_ROUND_SHIFT",0f0e0d0c0b0a09080706050403020100,000102030405060708090a0b0c0d0e0f,db46a245f6edc24619fa40aa26eb8afb,2cc716349adeb87f,0,0,0,0,0,0
54,54,0,"INIT_ROUND_SHIFT",0f0e0d0c0b0a09080706050403020100,000102030405060708090a0b0c0d0e0f,db46a245f6edc24619fa40aa26eb8afb,19421a53da0268fe,0,0,0,0,0,0
55,55,0,"INIT_ROUND_SHIFT",0f0e0d0c0b0a09080706050403020100,000102030405060708090a0b0c0d0e0f,db46a245f6edc24619fa40aa26eb8afb,84a40e62474d1bbc,0,0,0,0,0,0
56,56,0,"INIT_ROUND_SHIFT",0f0e0d0c0b0a09080706050403020100,000102030405060708090a0b0c0d0e0f,db46a245f6edc24619fa40aa26eb8afb,3bbb963281622671,0,0,0,0,0,0
57,57,0,"INIT_ROUND_SHIFT",0f0e0d0c0b0a09080706050403020100,000102030405060708090a0b0c0d0e0f,db46a245f6edc24619fa40aa26eb8afb,8457e853c23e9a86,0,0,0,0,0,0
58,58,0,"INIT_ROUND_SHIFT",0f0e0d0c0b0a09080706050403020100,000102030405060708090a0b0c0d0e0f,db46a245f6edc24619fa40aa26eb8afb,973059aa4755e875,0,0,0,0,0,0
59,59,0,"INIT_ROUND_SHIFT",0f0e0d0c0b0a09080706050403020100,000102030405060708090a0b0c0d0e0f,db46a245f6edc24619fa40aa26eb8afb,13edc76da16445be,0,0,0,0,0,0
60,60,0,"INIT_ROUND_SHIFT_LAST",0f0e0d0c0b0a09080706050403020100,000102030405060708090a0b0c0d0e0f,db46a245f6edc24619fa40aa26eb8afb,7166b116beda8309,0,0,0,1,0,0
61,61,0,"INIT_ROUND_DIFFUSE",0f0e0d0c0b0a09080706050403020100,000102030405060708090a0b0c0d0e0f,db46a245f6edc24619fa40aa26eb8afb,269779325fc8fe57,0,0,0,0,0,0
62,62,0,"INIT_ROUND_SHIFT",0f0e0d0c0b0a09080706050403020100,000102030405060708090a0b0c0d0e0f,db46a245f6edc24619fa40aa26eb8afb,1e77b338156c2e9a,0,0,0,0,0,0
63,63,0,"INIT_ROUND_SHIFT",0f0e0d0c0b0a09080706050403020100,000102030405060708090a0b0c0d0e0f,db46a245f6edc24619fa40aa26eb8afb,3ce8d8c7e864a2a5,0,0,0,0,0,0
64,64,0,"INIT_ROUND_SHIFT",0f0e0d0c0b0a09080706050403020100,000102030405060708090a0b0c0d0e0f,db46a245f6edc24619fa40aa26eb8afb,bc9aa56817ae8095,0,0,0,0,0,0
65,65,0,"INIT_ROUND_SHIFT",0f0e0d0c0b0a09080706050403020100,000102030405060708090a0b0c0d0e0f,db46a245f6edc24619fa40aa26eb8afb,12436c9ea867a81d,0,0,0,0,0,0
66,66,0,"INIT_ROUND_SHIFT",0f0e0d0c0b0a09080706050403020100,000102030405060708090a0b0c0d0e0f,db46a245f6edc24619fa40aa26eb8afb,08880bb972848cbf,0,0,0,0,0,0
67,67,0,"INIT_ROUND_SHIFT",0f0e0d0c0b0a09080706050403020100,000102030405060708090a0b0c0d0e0f,db46a245f6edc24619fa40aa26eb8afb,94cb2625ede5002d,0,0,0,0,0,0
68,68,0,"INIT_ROUND_SHIFT",0f0e0d0c0b0a09080706050403020100,000102030405060708090a0b0c0d0e0f,db46a245f6edc24619fa40aa26eb8afb,f6ea2a939f8c861f,0,0,0,0,0,0
69,69,0,"INIT_ROUND_SHIFT",0f0e0d0c0b0a09080706050403020100,000102030405060708090a0b0c0d0e0f,db46a245f6edc24619fa40aa26eb8afb,67d2aea146692007,0,0,0,0,0,0
70,70,0,"INIT_ROUND_SHIFT",0f0e0d0c0b0a09080706050403020100,000102030405060708090a0b0c0d0e0f,db46a245f6edc24619fa40aa26eb8afb,55364cb18d26b69f,0,0,0,0,0,0
71,71,0,"INIT_ROUND_SHIFT",0f0e0d0c0b0a09080706050403020100,000102030405060708090a0b0c0d0e0f,db46a245f6edc24619fa40aa26eb8afb,d825df39ce7d88c5,0,0,0,0,0,0
72,72,0,"INIT_ROUND_SHIFT",0f0e0d0c0b0a09080706050403020100,000102030405060708090a0b0c0d0e0f,db46a245f6edc24619fa40aa26eb8afb,4be19177ef0ce43c,0,0,0,0,0,0
73,73,0,"INIT_ROUND_SHIFT",0f0e0d0c0b0a09080706050403020100,000102030405060708090a0b0c0d0e0f,db46a245f6edc24619fa40aa26eb8afb,c966804ed7bb218f,0,0,0,0,0,0
74,74,0,"INIT_ROUND_SHIFT_LAST",0f0e0d0c0b0a09080706050403020100,000102030405060708090a0b0c0d0e0f,db46a245f6edc24619fa40aa26eb8afb,03649c0a335bfe99,0,0,0,1,0,0
75,75,0,"INIT_ROUND_DIFFUSE",0f0e0d0c0b0a09080706050403020100,000102030405060708090a0b0c0d0e0f,db46a245f6edc24619fa40aa26eb8afb,e0375be39770e98e,0,0,0,0,0,0
76,76,0,"INIT_ROUND_SHIFT",0f0e0d0c0b0a09080706050403020100,000102030405060708090a0b0c0d0e0f,db46a245f6edc24619fa40aa26eb8afb,03be8da792a6197d,0,0,0,0,0,0
77,77,0,"INIT_ROUND_SHIFT",0f0e0d0c0b0a09080706050403020100,000102030405060708090a0b0c0d0e0f,db46a245f6edc24619fa40aa26eb8afb,ac87fc3d967d8a7a,0,0,0,0,0,0
78,78,0,"INIT_ROUND_SHIFT",0f0e0d0c0b0a09080706050403020100,000102030405060708090a0b0c0d0e0f,db46a245f6edc24619fa40aa26eb8afb,3b2b19fbfe2ae436,0,0,0,0,0,0
79,79,0,"INIT_ROUND_SHIFT",0f0e0d0c0b0a09080706050403020100,000102030405060708090a0b0c0d0e0f,db46a245f6edc24619fa40aa26eb8afb,3d1daa6ce791b98f,0,0,0,0,0,0
80,80,0,"INIT_ROUND_SHIFT",0f0e0d0c0b0a09080706050403020100,000102030405060708090a0b0c0d0e0f,db46a245f6edc24619fa40aa26eb8afb,149d70a2bb9154f9,0,0,0,0,0,0
81,81,0,"INIT_ROUND_SHIFT",0f0e0d0c0b0a09080706050403020100,000102030405060708090a0b0c0d0e0f,db46a245f6edc24619fa40aa26eb8afb,591373c982ab574c,0,0,0,0,0,0
82,82,0,"INIT_ROUND_SHIFT",0f0e0d0c0b0a09080706050403020100,000102030405060708090a0b0c0d0e0f,db46a245f6edc24619fa40aa26eb8afb,3d454bc42e17bf42,0,0,0,0,0,0
83,83,0,"INIT_ROUND_SHIFT",0f0e0d0c0b0a09080706050403020100,000102030405060708090a0b0c0d0e0f,db46a245f6edc24619fa40aa26eb8afb,c15c132418c74ce2,0,0,0,0,0,0
84,84,0,"INIT_ROUND_SHIFT",0f0e0d0c0b0a09080706050403020100,000102030405060708090a0b0c0d0e0f,db46a245f6edc24619fa40aa26eb8afb,ab7c764798680f2c,0,0,0,0,0,0
85,85,0,"INIT_ROUND_SHIFT",0f0e0d0c0b0a09080706050403020100,000102030405060708090a0b0c0d0e0f,db46a245f6edc24619fa40aa26eb8afb,2facf7d21634b223,0,0,0,0,0,0
86,86,0,"INIT_ROUND_SHIFT",0f0e0d0c0b0a09080706050403020100,000102030405060708090a0b0c0d0e0f,db46a245f6edc24619fa40aa26eb8afb,1da7b5d4400bc0d7,0,0,0,0,0,0
87,87,0,"INIT_ROUND_SHIFT",0f0e0d0c0b0a09080706050403020100,000102030405060708090a0b0c0d0e0f,db46a245f6edc24619fa40aa26eb8afb,2caf98dc59233d1c,0,0,0,0,0,0
88,88,0,"INIT_ROUND_SHIFT_LAST",0f0e0d0c0b0a09080706050403020100,000102030405060708090a0b0c0d0e0f,db46a245f6edc24619fa40aa26eb8afb,4cf3b86879619eeb,0,0,0,1,0,0
89,89,0,"INIT_ROUND_DIFFUSE",0f0e0d0c0b0a09080706050403020100,000102030405060708090a0b0c0d0e0f,db46a245f6edc24619fa40aa26eb8afb,45ce29a5b3934f89,0,0,0,0,0,0
90,90,0,"INIT_ROUND_SHIFT",0f0e0d0c0b0a09080706050403020100,000102030405060708090a0b0c0d0e0f,db46a245f6edc24619fa40aa26eb8afb,8a1e7cd639de848f,0,0,0,0,0,0
91,91,0,"INIT_ROUND_SHIFT",0f0e0d0c0b0a09080706050403020100,000102030405060708090a0b0c0d0e0f,db46a245f6edc24619fa40aa26eb8afb,cff17ff85084680d,0,0,0,0,0,0
92,92,0,"INIT_ROUND_SHIFT",0f0e0d0c0b0a09080706050403020100,000102030405060708090a0b0c0d0e0f,db46a245f6edc24619fa40aa26eb8afb,4ff6c3f4e96503bf,0,0,0,0,0,0
93,93,0,"INIT_ROUND_SHIFT",0f0e0d0c0b0a09080706050403020100,000102030405060708090a0b0c0d0e0f,db46a245f6edc24619fa40aa26eb8afb,5456dd04dbea8611,0,0,0,0,0,0
94,94,0,"INIT_ROUND_SHIFT",0f0e0d0c0b0a09080706050403020100,000102030405060708090a0b0c0d0e0f,db46a245f6edc24619fa40aa26eb8afb,11c05d7f1b5eb807,0,0,0,0,0,0
95,95,0,"INIT_ROUND_SHIFT",0f0e0d0c0b0a09080706050403020100,000102030405060708090a0b0c0d0e0f,db46a245f6edc24619fa40aa26eb8afb,0c5e077ef47e68ff,0,0,0,0,0,0
96,96,0,"INIT_ROUND_SHIFT",0f0e0d0c0b0a09080706050403020100,000102030405060708090a0b0c0d0e0f,db46a245f6edc24619fa40aa26eb8afb,9cc87e16f3faebbc,0,0,0,0,0,0
97,97,0,"INIT_ROUND_SHIFT",0f0e0d0c0b0a09080706050403020100,000102030405060708090a0b0c0d0e0f,db46a245f6edc24619fa40aa26eb8afb,530a27f35384f9b1,0,0,0,0,0,0
98,98,0,"INIT_ROUND_SHIFT",0f0e0d0c0b0a09080706050403020100,000102030405060708090a0b0c0d0e0f,db46a245f6edc24619fa40aa26eb8afb,34952e94c52d01f9,0,0,0,0,0,0
99,99,0,"INIT_ROUND_SHIFT",0f0e0d0c0b0a09080706050403020100,000102030405060708090a0b0c0d0e0f,db46a245f6edc24619fa40aa26eb8afb,7ddb52b15b43a618,0,0,0,0,0,0
100,100,0,"INIT_ROUND_SHIFT",0f0e0d0c0b0a09080706050403020100,000102030405060708090a0b0c0d0e0f,db46a245f6edc24619fa40aa26eb8afb,4d966b41cd601c87,0,0,0,0,0,0
101,101,0,"INIT_ROUND_SHIFT",0f0e0d0c0b0a09080706050403020100,000102030405060708090a0b0c0d0e0f,db46a245f6edc24619fa40aa26eb8afb,80375fa60f60926d,0,0,0,0,0,0
102,102,0,"INIT_ROUND_SHIFT_LAST",0f0e0d0c0b0a09080706050403020100,000102030405060708090a0b0c0d0e0f,db46a245f6edc24619fa40aa26eb8afb,0351db75907c9056,0,0,0,1,0,0
103,103,0,"INIT_ROUND_DIFFUSE",0f0e0d0c0b0a09080706050403020100,000102030405060708090a0b0c0d0e0f,db46a245f6edc24619fa40aa26eb8afb,50b40f946d629f62,0,0,0,0,0,0
104,104,0,"INIT_ROUND_SHIFT",0f0e0d0c0b0a09080706050403020100,000102030405060708090a0b0c0d0e0f,db46a245f6edc24619fa40aa26eb8afb,51a1d643f1180ad6,0,0,0,0,0,0
105,105,0,"INIT_ROUND_SHIFT",0f0e0d0c0b0a09080706050403020100,000102030405060708090a0b0c0d0e0f,db46a245f6edc24619fa40aa26eb8afb,4d57815207d57234,0,0,0,0,0,0
106,106,0,"INIT_ROUND_SHIFT",0f0e0d0c0b0a09080706050403020100,000102030405060708090a0b0c0d0e0f,db46a245f6edc24619fa40aa26eb8afb,f14c580e401447d7,0,0,0,0,0,0
107,107,0,"INIT_ROUND_SHIFT",0f0e0d0c0b0a09080706050403020100,000102030405060708090a0b0c0d0e0f,db46a245f6edc24619fa40aa26eb8afb,be3c376b316b4300,0,0,0,0,0,0
108,108,0,"INIT_ROUND_SHIFT",0f0e0d0c0b0a09080706050403020100,000102030405060708090a0b0c0d0e0f,db46a245f6edc24619fa40aa26eb8afb,af99f6d6a488bf13,0,0,0,0,0,0
109,109,0,"INIT_ROUND_SHIFT",0f0e0d0c0b0a09080706050403020100,000102030405060708090a0b0c0d0e0f,db46a245f6edc24619fa40aa26eb8afb,973761d052e530e3,0,0,0,0,0,0
110,110,0,"INIT_ROUND_SHIFT",0f0e0d0c0b0a09080706050403020100,000102030405060708090a0b0c0d0e0f,db46a245f6edc24619fa40aa26eb8afb,ba0ddb8c494a86dc,0,0,0,0,0,0
111,111,0,"INIT_ROUND_SHIFT",0f0e0d0c0b0a09080706050403020100,000102030405060708090a0b0c0d0e0f,db46a245f6edc24619fa40aa26eb8afb,2679316539143804,0,0,0,0,0,0
112,112,0,"INIT_ROUND_SHIFT",0f0e0d0c0b0a09080706050403020100,000102030405060708090a0b0c0d0e0f,db46a245f6edc24619fa40aa26eb8afb,6040e2ce9cc742ff,0,0,0,0,0,0
113,113,0,"INIT_ROUND_SHIFT",0f0e0d0c0b0a09080706050403020100,000102030405060708090a0b0c0d0e0f,db46a245f6edc24619fa40aa26eb8afb,e588058032640f14,0,0,0,0,0,0
114,114,0,"INIT_ROUND_SHIFT",0f0e0d0c0b0a09080706050403020100,000102030405060708090a0b0c0d0e0f,db46a245f6edc24619fa40aa26eb8afb,73ef261d08c28223,0,0,0,0,0,0
115,115,0,"INIT_ROUND_SHIFT",0f0e0d0c0b0a09080706050403020100,000102030405060708090a0b0c0d0e0f,db46a245f6edc24619fa40aa26eb8afb,f506ba937c041817,0,0,0,0,0,0
116,116,0,"INIT_ROUND_SHIFT_LAST",0f0e0d0c0b0a09080706050403020100,000102030405060708090a0b0c0d0e0f,db46a245f6edc24619fa40aa26eb8afb,be2d1ce1459b027f,0,0,0,1,0,0
117,117,0,"INIT_ROUND_DIFFUSE",0f0e0d0c0b0a09080706050403020100,000102030405060708090a0b0c0d0e0f,db46a245f6edc24619fa40aa26eb8afb,cb63c3ed203ce640,0,0,0,0,0,0
118,118,0,"INIT_ROUND_SHIFT",0f0e0d0c0b0a09080706050403020100,000102030405060708090a0b0c0d0e0f,db46a245f6edc24619fa40aa26eb8afb,b3e71a9edf9124e0,0,0,0,0,0,0
119,119,0,"INIT_ROUND_SHIFT",0f0e0d0c0b0a09080706050403020100,000102030405060708090a0b0c0d0e0f,db46a245f6edc24619fa40aa26eb8afb,6f2e9a617313568c,0,0,0,0,0,0
120,120,0,"INIT_ROUND_SHIFT",0f0e0d0c0b0a09080706050403020100,000102030405060708090a0b0c0d0e0f,db46a245f6edc24619fa40aa26eb8afb,25adbc628ddd5f45,0,0,0,0,0,0
121,121,0,"INIT_ROUND_SHIFT",0f0e0d0c0b0a09080706050403020100,000102030405060708090a0b0c0d0e0f,db46a245f6edc24619fa40aa26eb8afb,1cbfb0fa82286762,0,0,0,0,0,0
122,122,0,"INIT_ROUND_SHIFT",0f0e0d0c0b0a09080706050403020100,000102030405060708090a0b0c0d0e0f,db46a245f6edc24619fa40aa26eb8afb,bc23f8c8e209b382,0,0,0,0,0,0
123,123,0,"INIT_ROUND_SHIFT",0f0e0d0c0b0a09080706050403020100,000102030405060708090a0b0c0d0e0f,db46a245f6edc24619fa40aa26eb8afb,5a6989e82bbb34d1,0,0,0,0,0,0
124,124,0,"INIT_ROUND_SHIFT",0f0e0d0c0b0a09080706050403020100,000102030405060708090a0b0c0d0e0f,db46a245f6edc24619fa40aa26eb8afb,dc60a02ca8f9fecc,0,0,0,0,0,0
125,125,0,"INIT_ROUND_SHIFT",0f0e0d0c0b0a09080706050403020100,000102030405060708090a0b0c0d0e0f,db46a245f6edc24619fa40aa26eb8afb,eef0848bbad6f5e4,0,0,0,0,0,0
126,126,0,"INIT_ROUND_SHIFT",0f0e0d0c0b0a09080706050403020100,000102030405060708090a0b0c0d0e0f,db46a245f6edc24619fa40aa26eb8afb,1a92c41926b449c8,0,0,0,0,0,0
127,127,0,"INIT_ROUND_SHIFT",0f0e0d0c0b0a09080706050403020100,000102030405060708090a0b0c0d0e0f,db46a245f6edc24619fa40aa26eb8afb,50b34d1b6cb9c338,0,0,0,0,0,0
