Sample in Buffer,Sample in Window,TRIGGER,U_reg_aes/reg_crypt_textin_buffer_msg[127:0],crypt_stateout[319:0],crypt_noncein[127:0],U_reg_aes/reg_crypt_textin_buffer_msg_crypt[127:0],u_ascon_top/mealy_fsm/current_state[4:0],crypt_key[127:0],u_ascon_top/ciphertext_valid,u_ascon_top/crypt_start
Radix - UNSIGNED,UNSIGNED,UNSIGNED,HEX,HEX,HEX,HEX,HEX,HEX,HEX,HEX
0,0,0,7856341211ccbbaa3412cdab003002f1,00000000000000000000000000000000000000000000000000000000000000000000000000000000,000102030405060708090a0b0c0d0e0f,7856341211ccbbaa3412cdab003002f1,"IDLE",0f0e0d0c0b0a09080706050403020100,0,0
1,1,0,7856341211ccbbaa3412cdab003002f1,00000000000000000000000000000000000000000000000000000000000000000000000000000000,000102030405060708090a0b0c0d0e0f,7856341211ccbbaa3412cdab003002f1,"IDLE",0f0e0d0c0b0a09080706050403020100,0,0
2,2,0,7856341211ccbbaa3412cdab003002f1,00000000000000000000000000000000000000000000000000000000000000000000000000000000,000102030405060708090a0b0c0d0e0f,7856341211ccbbaa3412cdab003002f1,"IDLE",0f0e0d0c0b0a09080706050403020100,0,0
3,3,0,7856341211ccbbaa3412cdab003002f1,00000000000000000000000000000000000000000000000000000000000000000000000000000000,000102030405060708090a0b0c0d0e0f,7856341211ccbbaa3412cdab003002f1,"IDLE",0f0e0d0c0b0a09080706050403020100,0,0
4,4,0,7856341211ccbbaa3412cdab003002f1,00000000000000000000000000000000000000000000000000000000000000000000000000000000,000102030405060708090a0b0c0d0e0f,7856341211ccbbaa3412cdab003002f1,"IDLE",0f0e0d0c0b0a09080706050403020100,0,0
5,5,0,7856341211ccbbaa3412cdab003002f1,00000000000000000000000000000000000000000000000000000000000000000000000000000000,000102030405060708090a0b0c0d0e0f,7856341211ccbbaa3412cdab003002f1,"IDLE",0f0e0d0c0b0a09080706050403020100,0,0
6,6,0,7856341211ccbbaa3412cdab003002f1,00000000000000000000000000000000000000000000000000000000000000000000000000000000,000102030405060708090a0b0c0d0e0f,7856341211ccbbaa3412cdab003002f1,"IDLE",0f0e0d0c0b0a09080706050403020100,0,0
7,7,0,7856341211ccbbaa3412cdab003002f1,00000000000000000000000000000000000000000000000000000000000000000000000000000000,000102030405060708090a0b0c0d0e0f,7856341211ccbbaa3412cdab003002f1,"IDLE",0f0e0d0c0b0a09080706050403020100,0,0
8,8,0,7856341211ccbbaa3412cdab003002f1,00000000000000000000000000000000000000000000000000000000000000000000000000000000,000102030405060708090a0b0c0d0e0f,7856341211ccbbaa3412cdab003002f1,"IDLE",0f0e0d0c0b0a09080706050403020100,0,0
9,9,0,7856341211ccbbaa3412cdab003002f1,00000000000000000000000000000000000000000000000000000000000000000000000000000000,000102030405060708090a0b0c0d0e0f,7856341211ccbbaa3412cdab003002f1,"IDLE",0f0e0d0c0b0a09080706050403020100,0,0
10,10,0,7856341211ccbbaa3412cdab003002f1,00000000000000000000000000000000000000000000000000000000000000000000000000000000,000102030405060708090a0b0c0d0e0f,7856341211ccbbaa3412cdab003002f1,"IDLE",0f0e0d0c0b0a09080706050403020100,0,0
11,11,0,7856341211ccbbaa3412cdab003002f1,00000000000000000000000000000000000000000000000000000000000000000000000000000000,000102030405060708090a0b0c0d0e0f,7856341211ccbbaa3412cdab003002f1,"IDLE",0f0e0d0c0b0a09080706050403020100,0,0
12,12,0,7856341211ccbbaa3412cdab003002f1,00000000000000000000000000000000000000000000000000000000000000000000000000000000,000102030405060708090a0b0c0d0e0f,7856341211ccbbaa3412cdab003002f1,"IDLE",0f0e0d0c0b0a09080706050403020100,0,0
13,13,0,7856341211ccbbaa3412cdab003002f1,00000000000000000000000000000000000000000000000000000000000000000000000000000000,000102030405060708090a0b0c0d0e0f,7856341211ccbbaa3412cdab003002f1,"IDLE",0f0e0d0c0b0a09080706050403020100,0,0
14,14,0,7856341211ccbbaa3412cdab003002f1,00000000000000000000000000000000000000000000000000000000000000000000000000000000,000102030405060708090a0b0c0d0e0f,7856341211ccbbaa3412cdab003002f1,"IDLE",0f0e0d0c0b0a09080706050403020100,0,0
15,15,0,7856341211ccbbaa3412cdab003002f1,00000000000000000000000000000000000000000000000000000000000000000000000000000000,000102030405060708090a0b0c0d0e0f,7856341211ccbbaa3412cdab003002f1,"IDLE",0f0e0d0c0b0a09080706050403020100,0,0
16,16,0,7856341211ccbbaa3412cdab003002f1,00000000000000000000000000000000000000000000000000000000000000000000000000000000,000102030405060708090a0b0c0d0e0f,7856341211ccbbaa3412cdab003002f1,"IDLE",0f0e0d0c0b0a09080706050403020100,0,0
17,17,0,7856341211ccbbaa3412cdab003002f1,00000000000000000000000000000000000000000000000000000000000000000000000000000000,000102030405060708090a0b0c0d0e0f,7856341211ccbbaa3412cdab003002f1,"IDLE",0f0e0d0c0b0a09080706050403020100,0,0
18,18,0,7856341211ccbbaa3412cdab003002f1,00000000000000000000000000000000000000000000000000000000000000000000000000000000,000102030405060708090a0b0c0d0e0f,7856341211ccbbaa3412cdab003002f1,"IDLE",0f0e0d0c0b0a09080706050403020100,0,0
19,19,0,7856341211ccbbaa3412cdab003002f1,00000000000000000000000000000000000000000000000000000000000000000000000000000000,000102030405060708090a0b0c0d0e0f,7856341211ccbbaa3412cdab003002f1,"IDLE",0f0e0d0c0b0a09080706050403020100,0,0
20,20,0,7856341211ccbbaa3412cdab003002f1,00000000000000000000000000000000000000000000000000000000000000000000000000000000,000102030405060708090a0b0c0d0e0f,7856341211ccbbaa3412cdab003002f1,"IDLE",0f0e0d0c0b0a09080706050403020100,0,0
21,21,0,7856341211ccbbaa3412cdab003002f1,00000000000000000000000000000000000000000000000000000000000000000000000000000000,000102030405060708090a0b0c0d0e0f,7856341211ccbbaa3412cdab003002f1,"IDLE",0f0e0d0c0b0a09080706050403020100,0,0
22,22,0,7856341211ccbbaa3412cdab003002f1,00000000000000000000000000000000000000000000000000000000000000000000000000000000,000102030405060708090a0b0c0d0e0f,7856341211ccbbaa3412cdab003002f1,"IDLE",0f0e0d0c0b0a09080706050403020100,0,0
23,23,0,7856341211ccbbaa3412cdab003002f1,00000000000000000000000000000000000000000000000000000000000000000000000000000000,000102030405060708090a0b0c0d0e0f,7856341211ccbbaa3412cdab003002f1,"IDLE",0f0e0d0c0b0a09080706050403020100,0,0
24,24,0,7856341211ccbbaa3412cdab003002f1,00000000000000000000000000000000000000000000000000000000000000000000000000000000,000102030405060708090a0b0c0d0e0f,7856341211ccbbaa3412cdab003002f1,"IDLE",0f0e0d0c0b0a09080706050403020100,0,0
25,25,0,7856341211ccbbaa3412cdab003002f1,00000000000000000000000000000000000000000000000000000000000000000000000000000000,000102030405060708090a0b0c0d0e0f,7856341211ccbbaa3412cdab003002f1,"IDLE",0f0e0d0c0b0a09080706050403020100,0,0
26,26,0,7856341211ccbbaa3412cdab003002f1,00000000000000000000000000000000000000000000000000000000000000000000000000000000,000102030405060708090a0b0c0d0e0f,7856341211ccbbaa3412cdab003002f1,"IDLE",0f0e0d0c0b0a09080706050403020100,0,0
27,27,0,7856341211ccbbaa3412cdab003002f1,00000000000000000000000000000000000000000000000000000000000000000000000000000000,000102030405060708090a0b0c0d0e0f,7856341211ccbbaa3412cdab003002f1,"IDLE",0f0e0d0c0b0a09080706050403020100,0,0
28,28,0,7856341211ccbbaa3412cdab003002f1,00000000000000000000000000000000000000000000000000000000000000000000000000000000,000102030405060708090a0b0c0d0e0f,7856341211ccbbaa3412cdab003002f1,"IDLE",0f0e0d0c0b0a09080706050403020100,0,0
29,29,0,7856341211ccbbaa3412cdab003002f1,00000000000000000000000000000000000000000000000000000000000000000000000000000000,000102030405060708090a0b0c0d0e0f,7856341211ccbbaa3412cdab003002f1,"IDLE",0f0e0d0c0b0a09080706050403020100,0,0
30,30,0,7856341211ccbbaa3412cdab003002f1,00000000000000000000000000000000000000000000000000000000000000000000000000000000,000102030405060708090a0b0c0d0e0f,7856341211ccbbaa3412cdab003002f1,"IDLE",0f0e0d0c0b0a09080706050403020100,0,1
31,31,0,7856341211ccbbaa3412cdab003002f1,00000000000000000000000000000000000000000000000000000000000000000000000000000000,000102030405060708090a0b0c0d0e0f,7856341211ccbbaa3412cdab003002f1,"INIT_LOAD",0f0e0d0c0b0a09080706050403020100,0,0
32,32,1,7856341211ccbbaa3412cdab003002f1,000102030405060708090a0b0c0d0e0f0f0e0d0c0b0a0908070605040302010000001000808c0001,000102030405060708090a0b0c0d0e0f,7856341211ccbbaa3412cdab003002f1,"INIT_ROUND_SHIFT",0f0e0d0c0b0a09080706050403020100,0,0
33,33,0,7856341211ccbbaa3412cdab003002f1,000004080c101418c02024282c3034383c3c3834302c2824c01c1814100c0804c000004002023000,000102030405060708090a0b0c0d0e0f,7856341211ccbbaa3412cdab003002f1,"INIT_ROUND_SHIFT",0f0e0d0c0b0a09080706050403020100,0,0
34,34,0,7856341211ccbbaa3412cdab003002f1,0000001020304050c3008090a0b0c0d03cf0f0e0d0c0b0a0c300706050403020c3000001000808c0,000102030405060708090a0b0c0d0e0f,7856341211ccbbaa3412cdab003002f1,"INIT_ROUND_SHIFT",0f0e0d0c0b0a09080706050403020100,0,0
35,35,0,7856341211ccbbaa3412cdab003002f1,200000004080c101c70c02024282c3031cf3c3c3834302c2e70c01c1814100c0db0c000004002023,000102030405060708090a0b0c0d0e0f,7856341211ccbbaa3412cdab003002f1,"INIT_ROUND_SHIFT",0f0e0d0c0b0a09080706050403020100,0,0
36,36,0,7856341211ccbbaa3412cdab003002f1,90800000010203040f1c3008090a0b0c7073cf0f0e0d0c0b9f9c3007060504037f6c300000100080,000102030405060708090a0b0c0d0e0f,7856341211ccbbaa3412cdab003002f1,"INIT_ROUND_SHIFT",0f0e0d0c0b0a09080706050403020100,0,0
37,37,0,7856341211ccbbaa3412cdab003002f1,824200000004080c003c70c02024282cfdc1cf3c3c383430827e70c01c181410c1fdb0c000004002,000102030405060708090a0b0c0d0e0f,7856341211ccbbaa3412cdab003002f1,"INIT_ROUND_SHIFT",0f0e0d0c0b0a09080706050403020100,0,0
38,38,0,7856341211ccbbaa3412cdab003002f1,0a090800000010208400f1c3008090a0f7f7073cf0f0e0d08609f9c3007060508b07f6c300000100,000102030405060708090a0b0c0d0e0f,7856341211ccbbaa3412cdab003002f1,"INIT_ROUND_SHIFT",0f0e0d0c0b0a09080706050403020100,0,0
39,39,0,7856341211ccbbaa3412cdab003002f1,2c28242000000040021003c70c020242dfdfdc1cf3c3c3832e1827e70c01c1811e2c1fdb0c000004,000102030405060708090a0b0c0d0e0f,7856341211ccbbaa3412cdab003002f1,"INIT_ROUND_SHIFT",0f0e0d0c0b0a09080706050403020100,0,0
40,40,0,7856341211ccbbaa3412cdab003002f1,c0b0a090800000010808400f1c3008097f7f7f7073cf0f0ec8b8609f9c3007067878b07f6c300000,000102030405060708090a0b0c0d0e0f,7856341211ccbbaa3412cdab003002f1,"INIT_ROUND_SHIFT",0f0e0d0c0b0a09080706050403020100,0,0
41,41,0,7856341211ccbbaa3412cdab003002f1,4302c28242000000002021003c70c020fdfdfdfdc1cf3c3c4322e1827e70c01cc1e1e2c1fdb0c000,000102030405060708090a0b0c0d0e0f,7856341211ccbbaa3412cdab003002f1,"INIT_ROUND_SHIFT",0f0e0d0c0b0a09080706050403020100,0,0
42,42,0,7856341211ccbbaa3412cdab003002f1,0d0c0b0a090800001000808400f1c300f7f7f7f7f7073cf01d0c8b8609f9c3001707878b07f6c300,000102030405060708090a0b0c0d0e0f,7856341211ccbbaa3412cdab003002f1,"INIT_ROUND_SHIFT",0f0e0d0c0b0a09080706050403020100,0,0
43,43,0,7856341211ccbbaa3412cdab003002f1,3834302c28242000004002021003c70cdfdfdfdfdfdc1cf33874322e1827e70c1c5c1e1e2c1fdb0c,000102030405060708090a0b0c0d0e0f,7856341211ccbbaa3412cdab003002f1,"INIT_ROUND_SHIFT",0f0e0d0c0b0a09080706050403020100,0,0
44,44,0,7856341211ccbbaa3412cdab003002f1,f0e0d0c0b0a090800001000808400f1c7f7f7f7f7f7f7073f0e1d0c8b8609f9c7071707878b07f6c,000102030405060708090a0b0c0d0e0f,7856341211ccbbaa3412cdab003002f1,"INIT_ROUND_SHIFT_LAST",0f0e0d0c0b0a09080706050403020100,0,0
45,45,0,7856341211ccbbaa3412cdab003002f1,0f0e0d0c0b0a090800001000808400f1f7f7f7f7f7f7f7070f0e1d0c8b8609f907071707878b07f6,000102030405060708090a0b0c0d0e0f,7856341211ccbbaa3412cdab003002f1,"INIT_ROUND_DIFFUSE",0f0e0d0c0b0a09080706050403020100,0,0
46,46,0,7856341211ccbbaa3412cdab003002f1,99159412971b9a1c3c38900488a461b313d3d3d3d3d3d3586e69f97b25a85a0b1f49a887151a877f,000102030405060708090a0b0c0d0e0f,7856341211ccbbaa3412cdab003002f1,"INIT_ROUND_SHIFT",0f0e0d0c0b0a09080706050403020100,0,0
47,47,0,7856341211ccbbaa3412cdab003002f1,326456504a5c6e684cf0e24012229186404f4f4f4f4f4f4d0db9a7e5ec96a1680c7d26a21c546a1d,000102030405060708090a0b0c0d0e0f,7856341211ccbbaa3412cdab003002f1,"INIT_ROUND_SHIFT",0f0e0d0c0b0a09080706050403020100,0,0
48,48,0,7856341211ccbbaa3412cdab003002f1,e0c99159412971b9c533c38900488a46e5013d3d3d3d3d3dc036e69f97b25a850031f49a887151a8,000102030405060708090a0b0c0d0e0f,7856341211ccbbaa3412cdab003002f1,"INIT_ROUND_SHIFT",0f0e0d0c0b0a09080706050403020100,0,0
49,49,0,7856341211ccbbaa3412cdab003002f1,9f8326456504a5c63714cf0e24012229079404f4f4f4f4f46700db9a7e5ec96ad000c7d26a21c546,000102030405060708090a0b0c0d0e0f,7856341211ccbbaa3412cdab003002f1,"INIT_ROUND_SHIFT",0f0e0d0c0b0a09080706050403020100,0,0
50,50,0,7856341211ccbbaa3412cdab003002f1,9a7e0c991594129764dc533c38900488c41e5013d3d3d3d36d9c036e69f97b255740031f49a88715,000102030405060708090a0b0c0d0e0f,7856341211ccbbaa3412cdab003002f1,"INIT_ROUND_SHIFT",0f0e0d0c0b0a09080706050403020100,0,0
51,51,0,7856341211ccbbaa3412cdab003002f1,ee69f8326456504a1d93714cf0e24012fb1079404f4f4f4fa9b6700db9a7e5ec495d000c7d26a21c,000102030405060708090a0b0c0d0e0f,7856341211ccbbaa3412cdab003002f1,"INIT_ROUND_SHIFT",0f0e0d0c0b0a09080706050403020100,0,0
52,52,0,7856341211ccbbaa3412cdab003002f1,17b9a7e0c9915941c4764dc533c389009fec41e5013d3d3d7ea6d9c036e69f974525740031f49a88,000102030405060708090a0b0c0d0e0f,7856341211ccbbaa3412cdab003002f1,"INIT_ROUND_SHIFT",0f0e0d0c0b0a09080706050403020100,0,0
53,53,0,7856341211ccbbaa3412cdab003002f1,e85ee69f83264565a711d93714cf0e247a7fb1079404f4f4f5fa9b6700db9a7ea91495d000c7d26a,000102030405060708090a0b0c0d0e0f,7856341211ccbbaa3412cdab003002f1,"INIT_ROUND_SHIFT",0f0e0d0c0b0a09080706050403020100,0,0
54,54,0,7856341211ccbbaa3412cdab003002f1,c3a17b9a7e0c9915fe9c4764dc533c3851e9fec41e5013d3a7d7ea6d9c036e6996a4525740031f49,000102030405060708090a0b0c0d0e0f,7856341211ccbbaa3412cdab003002f1,"INIT_ROUND_SHIFT",0f0e0d0c0b0a09080706050403020100,0,0
55,55,0,7856341211ccbbaa3412cdab003002f1,5f0e85ee69f832648ffa711d93714cf05147a7fb1079404fda9f5fa9b6700db9da5a91495d000c7d,000102030405060708090a0b0c0d0e0f,7856341211ccbbaa3412cdab003002f1,"INIT_ROUND_SHIFT",0f0e0d0c0b0a09080706050403020100,0,0
56,56,0,7856341211ccbbaa3412cdab003002f1,c57c3a17b9a7e0c9863fe9c4764dc533d1451e9fec41e501576a7d7ea6d9c036fb696a4525740031,000102030405060708090a0b0c0d0e0f,7856341211ccbbaa3412cdab003002f1,"INIT_ROUND_SHIFT",0f0e0d0c0b0a09080706050403020100,0,0
57,57,0,7856341211ccbbaa3412cdab003002f1,3315f0e85ee69f835e18ffa711d937140345147a7fb107949d5da9f5fa9b67000beda5a91495d000,000102030405060708090a0b0c0d0e0f,7856341211ccbbaa3412cdab003002f1,"INIT_ROUND_SHIFT",0f0e0d0c0b0a09080706050403020100,0,0
58,58,0,7856341211ccbbaa3412cdab003002f1,d0cc57c3a17b9a7e2d7863fe9c4764dc340d1451e9fec41e9a7576a7d7ea6d9cac2fb696a4525740,000102030405060708090a0b0c0d0e0f,7856341211ccbbaa3412cdab003002f1,"INIT_ROUND_SHIFT_LAST",0f0e0d0c0b0a09080706050403020100,0,0
59,59,0,7856341211ccbbaa3412cdab003002f1,cd0cc57c3a17b9a7c2d7863fe9c4764d0340d1451e9fec41f9a7576a7d7ea6d95ac2fb696a452574,000102030405060708090a0b0c0d0e0f,7856341211ccbbaa3412cdab003002f1,"INIT_ROUND_DIFFUSE",0f0e0d0c0b0a09080706050403020100,0,0
60,60,0,7856341211ccbbaa3412cdab003002f1,3c8bd72a118510b66a81d2b5a521f3b286edbaa285aa65d0e06711742578deb85a3e27749907beaa,000102030405060708090a0b0c0d0e0f,7856341211ccbbaa3412cdab003002f1,"INIT_ROUND_SHIFT",0f0e0d0c0b0a09080706050403020100,0,0
61,61,0,7856341211ccbbaa3412cdab003002f1,88f22f5ca846144281aa074ad69487ce7e1bb6ea8a16a997f3819c45d095e37a7968f89dd2641efa,000102030405060708090a0b0c0d0e0f,7856341211ccbbaa3412cdab003002f1,"INIT_ROUND_SHIFT",0f0e0d0c0b0a09080706050403020100,0,0
62,62,0,7856341211ccbbaa3412cdab003002f1,8a23c8bd72a118511e06a81d2b5a521f91f86edbaa285aa6bbce06711742578d45e5a3e27749907b,000102030405060708090a0b0c0d0e0f,7856341211ccbbaa3412cdab003002f1,"INIT_ROUND_SHIFT",0f0e0d0c0b0a09080706050403020100,0,0
63,63,0,7856341211ccbbaa3412cdab003002f1,92288f22f5ca846150781aa074ad69480647e1bb6ea8a16a9aef3819c45d095ee917968f89dd2641,000102030405060708090a0b0c0d0e0f,7856341211ccbbaa3412cdab003002f1,"INIT_ROUND_SHIFT",0f0e0d0c0b0a09080706050403020100,0,0
64,64,0,7856341211ccbbaa3412cdab003002f1,3a48a23c8bd72a114141e06a81d2b5a544191f86edbaa2851a6bbce067117425cba45e5a3e277499,000102030405060708090a0b0c0d0e0f,7856341211ccbbaa3412cdab003002f1,"INIT_ROUND_SHIFT",0f0e0d0c0b0a09080706050403020100,0,0
65,65,0,7856341211ccbbaa3412cdab003002f1,2ce92288f22f5ca851050781aa074ad65110647e1bb6ea8a4469aef3819c45d00f2e917968f89dd2,000102030405060708090a0b0c0d0e0f,7856341211ccbbaa3412cdab003002f1,"INIT_ROUND_SHIFT",0f0e0d0c0b0a09080706050403020100,0,0
66,66,0,7856341211ccbbaa3412cdab003002f1,dcb3a48a23c8bd727544141e06a81d2ba9444191f86edbaa5911a6bbce067117dc3cba45e5a3e277,000102030405060708090a0b0c0d0e0f,7856341211ccbbaa3412cdab003002f1,"INIT_ROUND_SHIFT",0f0e0d0c0b0a09080706050403020100,0,0
67,67,0,7856341211ccbbaa3412cdab003002f1,4772ce92288f22f575d51050781aa0743ea5110647e1bb6ea164469aef3819c46770f2e917968f89,000102030405060708090a0b0c0d0e0f,7856341211ccbbaa3412cdab003002f1,"INIT_ROUND_SHIFT",0f0e0d0c0b0a09080706050403020100,0,0
68,68,0,7856341211ccbbaa3412cdab003002f1,f91dcb3a48a23c8b91d7544141e06a8134fa9444191f86ed9285911a6bbce067399dc3cba45e5a3e,000102030405060708090a0b0c0d0e0f,7856341211ccbbaa3412cdab003002f1,"INIT_ROUND_SHIFT",0f0e0d0c0b0a09080706050403020100,0,0
69,69,0,7856341211ccbbaa3412cdab003002f1,2fe4772ce92288f20a475d51050781aa48d3ea5110647e1be24a164469aef38198e6770f2e917968,000102030405060708090a0b0c0d0e0f,7856341211ccbbaa3412cdab003002f1,"INIT_ROUND_SHIFT",0f0e0d0c0b0a09080706050403020100,0,0
70,70,0,7856341211ccbbaa3412cdab003002f1,04bf91dcb3a48a238c291d7544141e0651234fa9444191f81b89285911a6bbce5e6399dc3cba45e5,000102030405060708090a0b0c0d0e0f,7856341211ccbbaa3412cdab003002f1,"INIT_ROUND_SHIFT",0f0e0d0c0b0a09080706050403020100,0,0
71,71,0,7856341211ccbbaa3412cdab003002f1,2012fe4772ce9228d230a475d5105078fd448d3ea51106476c6e24a164469aefd5798e6770f2e917,000102030405060708090a0b0c0d0e0f,7856341211ccbbaa3412cdab003002f1,"INIT_ROUND_SHIFT",0f0e0d0c0b0a09080706050403020100,0,0
72,72,0,7856341211ccbbaa3412cdab003002f1,64804bf91dcb3a488b48c291d7544141d7f51234fa94441985b1b89285911a6b6755e6399dc3cba4,000102030405060708090a0b0c0d0e0f,7856341211ccbbaa3412cdab003002f1,"INIT_ROUND_SHIFT_LAST",0f0e0d0c0b0a09080706050403020100,0,0
73,73,0,7856341211ccbbaa3412cdab003002f1,d64804bf91dcb3a438b48c291d7544148d7f51234fa94441885b1b89285911a6b6755e6399dc3cba,000102030405060708090a0b0c0d0e0f,7856341211ccbbaa3412cdab003002f1,"INIT_ROUND_DIFFUSE",0f0e0d0c0b0a09080706050403020100,0,0
74,74,0,7856341211ccbbaa3412cdab003002f1,c02c7aef3c942ec19fb0bd50512697ff4df504f665434370d8d375e327812aa5ac21c3065545a9b8,000102030405060708090a0b0c0d0e0f,7856341211ccbbaa3412cdab003002f1,"INIT_ROUND_SHIFT",0f0e0d0c0b0a09080706050403020100,0,0
75,75,0,7856341211ccbbaa3412cdab003002f1,2b00b1ebbcf250bb7e7ec2f541449a5f1537d413d9950d0d5b634dd78c9e04aadab0870c195516a6,000102030405060708090a0b0c0d0e0f,7856341211ccbbaa3412cdab003002f1,"INIT_ROUND_SHIFT",0f0e0d0c0b0a09080706050403020100,0,0
76,76,0,7856341211ccbbaa3412cdab003002f1,40ac02c7aef3c9423df9fb0bd5051269a854df504f665434a56d8d375e3278127f6ac21c3065545a,000102030405060708090a0b0c0d0e0f,7856341211ccbbaa3412cdab003002f1,"INIT_ROUND_SHIFT",0f0e0d0c0b0a09080706050403020100,0,0
77,77,0,7856341211ccbbaa3412cdab003002f1,e902b00b1ebbcf25a0f7e7ec2f541449a6a1537d413d99509e95b634dd78c9e045fdab0870c19551,000102030405060708090a0b0c0d0e0f,7856341211ccbbaa3412cdab003002f1,"INIT_ROUND_SHIFT",0f0e0d0c0b0a09080706050403020100,0,0
78,78,0,7856341211ccbbaa3412cdab003002f1,1ba40ac02c7aef3c0a83df9fb0bd5051ee9a854df504f665a27a56d8d375e3277d17f6ac21c30655,000102030405060708090a0b0c0d0e0f,7856341211ccbbaa3412cdab003002f1,"INIT_ROUND_SHIFT",0f0e0d0c0b0a09080706050403020100,0,0
79,79,0,7856341211ccbbaa3412cdab003002f1,a46e902b00b1ebbc742a0f7e7ec2f5416fba6a1537d413d99e89e95b634dd78c55f45fdab0870c19,000102030405060708090a0b0c0d0e0f,7856341211ccbbaa3412cdab003002f1,"INIT_ROUND_SHIFT",0f0e0d0c0b0a09080706050403020100,0,0
80,80,0,7856341211ccbbaa3412cdab003002f1,b291ba40ac02c7ae35d0a83df9fb0bd5adbee9a854df504f367a27a56d8d375e2157d17f6ac21c30,000102030405060708090a0b0c0d0e0f,7856341211ccbbaa3412cdab003002f1,"INIT_ROUND_SHIFT",0f0e0d0c0b0a09080706050403020100,0,0
81,81,0,7856341211ccbbaa3412cdab003002f1,aeca46e902b00b1efcd742a0f7e7ec2f46b6fba6a1537d417cd9e89e95b634dd08855f45fdab0870,000102030405060708090a0b0c0d0e0f,7856341211ccbbaa3412cdab003002f1,"INIT_ROUND_SHIFT",0f0e0d0c0b0a09080706050403020100,0,0
